time	V(n001)	I(C1)	I(L1)	I(R1)
0.000000000000000e+00	0.000000e+00	0.000000e+00	0.000000e+00	0.000000e+00
9.999999717180685e-10	5.000000e-12	5.000000e-05	1.668333e-21	-5.000000e-05
1.023999971092636e-09	5.122880e-12	5.120000e-05	1.709357e-21	-5.120000e-05
1.071999969841770e-09	5.374400e-12	5.360000e-05	1.793419e-21	-5.360000e-05
1.167999967340038e-09	5.912000e-12	5.840000e-05	1.974181e-21	-5.840000e-05
1.359999962336573e-09	7.125440e-12	6.800000e-05	2.391783e-21	-6.800000e-05
1.743999952329645e-09	1.010528e-11	8.719999e-05	3.495542e-21	-8.719999e-05
2.511999932315788e-09	1.827680e-11	1.256000e-04	7.131173e-21	-1.256000e-04
4.047999892288074e-09	4.346720e-11	2.024000e-04	2.294603e-20	-2.024000e-04
7.119999812232647e-09	1.292374e-10	3.560000e-04	1.113994e-19	-3.560000e-04
1.326399965212179e-08	4.423356e-10	6.632000e-04	6.967946e-19	-6.632000e-04
2.555199933190009e-08	1.634763e-09	1.277600e-03	4.951090e-18	-1.277600e-03
5.012799869145667e-08	6.284542e-09	2.506400e-03	3.739011e-17	-2.506400e-03
9.927999741056983e-08	2.464379e-08	4.963999e-03	2.907611e-16	-4.963999e-03
1.616621536473158e-07	6.533912e-08	8.083105e-03	1.226329e-15	-8.083105e-03
2.310703237090396e-07	1.334862e-07	1.155351e-02	3.526369e-15	-1.155351e-02
2.978997705370257e-07	2.218631e-07	1.489498e-02	7.484364e-15	-1.489498e-02
3.974777397863028e-07	3.949737e-07	1.987387e-02	1.772165e-14	-1.987387e-02
5.170804366764203e-07	6.684326e-07	2.585400e-02	3.891945e-14	-2.585400e-02
6.866521567990298e-07	1.178730e-06	3.433257e-02	9.112403e-14	-3.433257e-02
8.980935433834202e-07	2.016430e-06	4.490461e-02	2.037225e-13	-4.490461e-02
1.000000000000000e-06	2.500000e-06	4.999992e-02	2.804315e-13	-4.999992e-02
1.203812913233160e-06	3.519062e-06	4.999988e-02	4.848923e-13	-4.999988e-02
1.562397402276613e-06	5.311979e-06	4.999982e-02	1.012672e-12	-4.999982e-02
2.094765515755946e-06	7.973808e-06	4.999973e-02	2.191495e-12	-4.999973e-02
3.159501742714611e-06	1.329745e-05	4.999956e-02	5.966210e-12	-4.999956e-02
5.288974196631941e-06	2.394468e-05	4.999920e-02	1.918390e-11	-4.999920e-02
9.547919104466602e-06	4.523891e-05	4.999849e-02	6.829209e-11	-4.999849e-02
1.806580892013592e-05	8.782648e-05	4.999707e-02	2.571982e-10	-4.999707e-02
2.000000000000000e-05	9.749684e-05	4.999675e-02	3.169399e-10	-4.999675e-02
2.072376341048969e-05	1.011154e-04	4.999663e-02	3.413345e-10	-4.999663e-02
2.217129023146908e-05	1.083525e-04	4.999639e-02	3.918696e-10	-4.999639e-02
2.506634387342785e-05	1.228267e-04	4.999591e-02	5.034156e-10	-4.999591e-02
3.085645115734540e-05	1.517746e-04	4.999494e-02	7.684107e-10	-4.999494e-02
4.243666572518049e-05	2.096687e-04	4.999301e-02	1.466009e-09	-4.999301e-02
6.559709486085068e-05	3.254501e-04	4.998915e-02	3.531606e-09	-4.998915e-02
1.119179531321910e-04	5.569863e-04	4.998142e-02	1.034414e-08	-4.998143e-02
2.045596696748718e-04	1.019951e-03	4.996597e-02	3.469251e-08	-4.996600e-02
3.045596696748717e-04	1.519527e-03	4.994927e-02	7.701715e-08	-4.994935e-02
4.045596696748717e-04	2.018937e-03	4.993257e-02	1.359915e-07	-4.993270e-02
5.045596696748717e-04	2.518179e-03	4.991585e-02	2.116101e-07	-4.991606e-02
6.045596696748717e-04	3.017253e-03	4.989912e-02	3.038673e-07	-4.989943e-02
7.045596696748718e-04	3.516161e-03	4.988238e-02	4.127575e-07	-4.988280e-02
8.045596696748718e-04	4.014901e-03	4.986563e-02	5.382752e-07	-4.986617e-02
9.045596696748719e-04	4.513474e-03	4.984887e-02	6.804148e-07	-4.984955e-02
1.004559669674872e-03	5.011878e-03	4.983210e-02	8.391706e-07	-4.983294e-02
1.104559669674872e-03	5.510116e-03	4.981532e-02	1.014537e-06	-4.981633e-02
1.204559669674872e-03	6.008185e-03	4.979852e-02	1.206509e-06	-4.979973e-02
1.304559669674872e-03	6.506086e-03	4.978171e-02	1.415080e-06	-4.978313e-02
1.404559669674872e-03	7.003819e-03	4.976490e-02	1.640245e-06	-4.976654e-02
1.504559669674872e-03	7.501384e-03	4.974807e-02	1.881998e-06	-4.974996e-02
1.604559669674872e-03	7.998780e-03	4.973123e-02	2.140334e-06	-4.973337e-02
1.704559669674872e-03	8.496009e-03	4.971438e-02	2.415247e-06	-4.971680e-02
1.804559669674872e-03	8.993068e-03	4.969753e-02	2.706732e-06	-4.970023e-02
1.904559669674872e-03	9.489959e-03	4.968065e-02	3.014782e-06	-4.968367e-02
2.004559669674872e-03	9.986681e-03	4.966377e-02	3.339393e-06	-4.966711e-02
2.104559669674872e-03	1.048323e-02	4.964688e-02	3.680558e-06	-4.965056e-02
2.204559669674872e-03	1.097962e-02	4.962998e-02	4.038272e-06	-4.963401e-02
2.304559669674872e-03	1.147583e-02	4.961306e-02	4.412530e-06	-4.961747e-02
2.404559669674872e-03	1.197188e-02	4.959613e-02	4.803324e-06	-4.960094e-02
2.504559669674871e-03	1.246776e-02	4.957920e-02	5.210652e-06	-4.958441e-02
2.604559669674871e-03	1.296346e-02	4.956225e-02	5.634505e-06	-4.956789e-02
2.704559669674871e-03	1.345900e-02	4.954529e-02	6.074879e-06	-4.955137e-02
2.804559669674871e-03	1.395437e-02	4.952832e-02	6.531769e-06	-4.953485e-02
2.904559669674871e-03	1.444957e-02	4.951134e-02	7.005167e-06	-4.951835e-02
3.004559669674871e-03	1.494460e-02	4.949435e-02	7.495070e-06	-4.950185e-02
3.104559669674870e-03	1.543945e-02	4.947735e-02	8.001471e-06	-4.948535e-02
3.204559669674870e-03	1.593414e-02	4.946034e-02	8.524364e-06	-4.946886e-02
3.304559669674870e-03	1.642866e-02	4.944332e-02	9.063743e-06	-4.945238e-02
3.404559669674870e-03	1.692301e-02	4.942628e-02	9.619604e-06	-4.943590e-02
3.504559669674870e-03	1.741719e-02	4.940924e-02	1.019194e-05	-4.941943e-02
3.604559669674870e-03	1.791119e-02	4.939218e-02	1.078075e-05	-4.940296e-02
3.704559669674869e-03	1.840503e-02	4.937511e-02	1.138602e-05	-4.938650e-02
3.804559669674869e-03	1.889870e-02	4.935804e-02	1.200774e-05	-4.937004e-02
3.904559669674869e-03	1.939219e-02	4.934095e-02	1.264593e-05	-4.935359e-02
4.004559669674869e-03	1.988552e-02	4.932385e-02	1.330055e-05	-4.933715e-02
4.104559669674869e-03	2.037867e-02	4.930674e-02	1.397162e-05	-4.932071e-02
4.204559669674869e-03	2.087165e-02	4.928962e-02	1.465913e-05	-4.930428e-02
4.304559669674870e-03	2.136446e-02	4.927249e-02	1.536306e-05	-4.928785e-02
4.404559669674870e-03	2.185710e-02	4.925535e-02	1.608342e-05	-4.927143e-02
4.504559669674870e-03	2.234957e-02	4.923819e-02	1.682020e-05	-4.925501e-02
4.604559669674871e-03	2.284186e-02	4.922103e-02	1.757339e-05	-4.923860e-02
4.704559669674871e-03	2.333399e-02	4.920386e-02	1.834299e-05	-4.922220e-02
4.804559669674871e-03	2.382594e-02	4.918667e-02	1.912898e-05	-4.920580e-02
4.904559669674871e-03	2.431772e-02	4.916948e-02	1.993138e-05	-4.918941e-02
5.004559669674872e-03	2.480933e-02	4.915227e-02	2.075016e-05	-4.917302e-02
5.104559669674872e-03	2.530077e-02	4.913506e-02	2.158533e-05	-4.915664e-02
5.204559669674872e-03	2.579203e-02	4.911783e-02	2.243687e-05	-4.914027e-02
5.304559669674872e-03	2.628312e-02	4.910059e-02	2.330479e-05	-4.912389e-02
5.404559669674873e-03	2.677404e-02	4.908334e-02	2.418908e-05	-4.910753e-02
5.504559669674873e-03	2.726479e-02	4.906609e-02	2.508972e-05	-4.909118e-02
5.604559669674873e-03	2.775536e-02	4.904881e-02	2.600673e-05	-4.907482e-02
5.704559669674873e-03	2.824577e-02	4.903153e-02	2.694008e-05	-4.905847e-02
5.804559669674874e-03	2.873600e-02	4.901424e-02	2.788977e-05	-4.904213e-02
5.904559669674874e-03	2.922605e-02	4.899694e-02	2.885581e-05	-4.902580e-02
6.004559669674874e-03	2.971593e-02	4.897963e-02	2.983817e-05	-4.900947e-02
6.104559669674874e-03	3.020564e-02	4.896231e-02	3.083686e-05	-4.899314e-02
6.204559669674875e-03	3.069518e-02	4.894498e-02	3.185188e-05	-4.897683e-02
6.304559669674875e-03	3.118454e-02	4.892763e-02	3.288320e-05	-4.896051e-02
6.404559669674875e-03	3.167373e-02	4.891028e-02	3.393084e-05	-4.894421e-02
6.504559669674875e-03	3.216275e-02	4.889292e-02	3.499478e-05	-4.892791e-02
6.604559669674876e-03	3.265159e-02	4.887554e-02	3.607502e-05	-4.891161e-02
6.704559669674876e-03	3.314026e-02	4.885815e-02	3.717155e-05	-4.889533e-02
6.804559669674876e-03	3.362875e-02	4.884076e-02	3.828436e-05	-4.887904e-02
6.904559669674877e-03	3.411707e-02	4.882335e-02	3.941346e-05	-4.886276e-02
7.004559669674877e-03	3.460522e-02	4.880593e-02	4.055883e-05	-4.884649e-02
7.104559669674877e-03	3.509319e-02	4.878851e-02	4.172047e-05	-4.883023e-02
7.204559669674877e-03	3.558099e-02	4.877107e-02	4.289837e-05	-4.881397e-02
7.304559669674878e-03	3.606861e-02	4.875362e-02	4.409253e-05	-4.879771e-02
7.404559669674878e-03	3.655606e-02	4.873616e-02	4.530294e-05	-4.878147e-02
7.504559669674878e-03	3.704334e-02	4.871869e-02	4.652959e-05	-4.876522e-02
7.604559669674878e-03	3.753044e-02	4.870121e-02	4.777249e-05	-4.874898e-02
7.704559669674879e-03	3.801736e-02	4.868372e-02	4.903162e-05	-4.873275e-02
7.804559669674879e-03	3.850411e-02	4.866622e-02	5.030697e-05	-4.871653e-02
7.904559669674878e-03	3.899069e-02	4.864871e-02	5.159855e-05	-4.870031e-02
8.004559669674878e-03	3.947708e-02	4.863119e-02	5.290635e-05	-4.868410e-02
8.104559669674877e-03	3.996331e-02	4.861366e-02	5.423035e-05	-4.866789e-02
8.204559669674876e-03	4.044936e-02	4.859612e-02	5.557056e-05	-4.865169e-02
8.304559669674876e-03	4.093523e-02	4.857856e-02	5.692697e-05	-4.863549e-02
8.404559669674875e-03	4.142093e-02	4.856100e-02	5.829957e-05	-4.861930e-02
8.504559669674875e-03	4.190645e-02	4.854343e-02	5.968835e-05	-4.860312e-02
8.604559669674874e-03	4.239180e-02	4.852585e-02	6.109333e-05	-4.858694e-02
8.704559669674873e-03	4.287697e-02	4.850825e-02	6.251447e-05	-4.857077e-02
8.804559669674873e-03	4.336196e-02	4.849065e-02	6.395178e-05	-4.855460e-02
8.904559669674872e-03	4.384678e-02	4.847303e-02	6.540526e-05	-4.853844e-02
9.004559669674872e-03	4.433142e-02	4.845541e-02	6.687489e-05	-4.852229e-02
9.104559669674871e-03	4.481589e-02	4.843778e-02	6.836068e-05	-4.850614e-02
9.204559669674870e-03	4.530018e-02	4.842013e-02	6.986261e-05	-4.849000e-02
9.304559669674870e-03	4.578429e-02	4.840248e-02	7.138069e-05	-4.847386e-02
9.404559669674869e-03	4.626823e-02	4.838481e-02	7.291489e-05	-4.845773e-02
9.504559669674869e-03	4.675199e-02	4.836714e-02	7.446523e-05	-4.844160e-02
9.604559669674868e-03	4.723557e-02	4.834945e-02	7.603168e-05	-4.842548e-02
9.704559669674867e-03	4.771898e-02	4.833175e-02	7.761426e-05	-4.840937e-02
9.804559669674867e-03	4.820221e-02	4.831405e-02	7.921294e-05	-4.839326e-02
9.904559669674866e-03	4.868526e-02	4.829633e-02	8.082773e-05	-4.837716e-02
1.000455966967487e-02	4.916813e-02	4.827860e-02	8.245862e-05	-4.836106e-02
1.010455966967486e-02	4.965083e-02	4.826087e-02	8.410560e-05	-4.834497e-02
1.020455966967486e-02	5.013335e-02	4.824312e-02	8.576866e-05	-4.832889e-02
1.030455966967486e-02	5.061569e-02	4.822536e-02	8.744781e-05	-4.831281e-02
1.040455966967486e-02	5.109786e-02	4.820760e-02	8.914303e-05	-4.829674e-02
1.050455966967486e-02	5.157984e-02	4.818982e-02	9.085432e-05	-4.828067e-02
1.060455966967486e-02	5.206165e-02	4.817203e-02	9.258168e-05	-4.826461e-02
1.070455966967486e-02	5.254329e-02	4.815423e-02	9.432509e-05	-4.824856e-02
1.080455966967486e-02	5.302474e-02	4.813642e-02	9.608456e-05	-4.823251e-02
1.090455966967486e-02	5.350601e-02	4.811861e-02	9.786007e-05	-4.821647e-02
1.100455966967486e-02	5.398711e-02	4.810078e-02	9.965162e-05	-4.820043e-02
1.110455966967486e-02	5.446803e-02	4.808294e-02	1.014592e-04	-4.818440e-02
1.120455966967486e-02	5.494877e-02	4.806509e-02	1.032828e-04	-4.816838e-02
1.130455966967486e-02	5.542933e-02	4.804723e-02	1.051224e-04	-4.815236e-02
1.140455966967486e-02	5.590972e-02	4.802936e-02	1.069781e-04	-4.813634e-02
1.150455966967486e-02	5.638992e-02	4.801149e-02	1.088497e-04	-4.812033e-02
1.160455966967486e-02	5.686994e-02	4.799360e-02	1.107374e-04	-4.810433e-02
1.170455966967486e-02	5.734979e-02	4.797570e-02	1.126411e-04	-4.808834e-02
1.180455966967485e-02	5.782946e-02	4.795779e-02	1.145607e-04	-4.807235e-02
1.190455966967485e-02	5.830895e-02	4.793987e-02	1.164963e-04	-4.805637e-02
1.200455966967485e-02	5.878825e-02	4.792194e-02	1.184480e-04	-4.804039e-02
1.210455966967485e-02	5.926738e-02	4.790400e-02	1.204156e-04	-4.802442e-02
1.220455966967485e-02	5.974634e-02	4.788605e-02	1.223991e-04	-4.800846e-02
1.230455966967485e-02	6.022511e-02	4.786810e-02	1.243986e-04	-4.799250e-02
1.240455966967485e-02	6.070370e-02	4.785013e-02	1.264141e-04	-4.797654e-02
1.250455966967485e-02	6.118211e-02	4.783215e-02	1.284455e-04	-4.796060e-02
1.260455966967485e-02	6.166034e-02	4.781416e-02	1.304929e-04	-4.794465e-02
1.270455966967485e-02	6.213839e-02	4.779616e-02	1.325562e-04	-4.792872e-02
1.280455966967485e-02	6.261627e-02	4.777816e-02	1.346355e-04	-4.791279e-02
1.290455966967485e-02	6.309395e-02	4.776014e-02	1.367306e-04	-4.789687e-02
1.300455966967485e-02	6.357147e-02	4.774211e-02	1.388417e-04	-4.788095e-02
1.310455966967485e-02	6.404880e-02	4.772407e-02	1.409687e-04	-4.786504e-02
1.320455966967485e-02	6.452595e-02	4.770602e-02	1.431116e-04	-4.784913e-02
1.330455966967485e-02	6.500292e-02	4.768797e-02	1.452704e-04	-4.783324e-02
1.340455966967485e-02	6.547970e-02	4.766990e-02	1.474451e-04	-4.781734e-02
1.350455966967484e-02	6.595632e-02	4.765182e-02	1.496357e-04	-4.780146e-02
1.360455966967484e-02	6.643274e-02	4.763373e-02	1.518422e-04	-4.778558e-02
1.370455966967484e-02	6.690899e-02	4.761564e-02	1.540646e-04	-4.776970e-02
1.380455966967484e-02	6.738506e-02	4.759753e-02	1.563028e-04	-4.775383e-02
1.390455966967484e-02	6.786094e-02	4.757941e-02	1.585569e-04	-4.773797e-02
1.400455966967484e-02	6.833664e-02	4.756128e-02	1.608268e-04	-4.772211e-02
1.410455966967484e-02	6.881217e-02	4.754315e-02	1.631126e-04	-4.770626e-02
1.420455966967484e-02	6.928751e-02	4.752500e-02	1.654143e-04	-4.769042e-02
1.430455966967484e-02	6.976267e-02	4.750685e-02	1.677318e-04	-4.767458e-02
1.440455966967484e-02	7.023764e-02	4.748868e-02	1.700651e-04	-4.765875e-02
1.450455966967484e-02	7.071244e-02	4.747050e-02	1.724143e-04	-4.764292e-02
1.460455966967484e-02	7.118706e-02	4.745232e-02	1.747793e-04	-4.762710e-02
1.470455966967484e-02	7.166149e-02	4.743413e-02	1.771601e-04	-4.761129e-02
1.480455966967484e-02	7.213574e-02	4.741592e-02	1.795567e-04	-4.759547e-02
1.490455966967484e-02	7.260980e-02	4.739770e-02	1.819691e-04	-4.757967e-02
1.500455966967484e-02	7.308369e-02	4.737948e-02	1.843973e-04	-4.756388e-02
1.510455966967483e-02	7.355739e-02	4.736125e-02	1.868413e-04	-4.754809e-02
1.520455966967483e-02	7.403091e-02	4.734300e-02	1.893012e-04	-4.753230e-02
1.530455966967483e-02	7.450426e-02	4.732475e-02	1.917767e-04	-4.751652e-02
1.540455966967483e-02	7.497741e-02	4.730649e-02	1.942681e-04	-4.750075e-02
1.550455966967483e-02	7.545038e-02	4.728821e-02	1.967752e-04	-4.748499e-02
1.560455966967483e-02	7.592317e-02	4.726993e-02	1.992981e-04	-4.746923e-02
1.570455966967483e-02	7.639578e-02	4.725164e-02	2.018367e-04	-4.745347e-02
1.580455966967483e-02	7.686821e-02	4.723334e-02	2.043911e-04	-4.743773e-02
1.590455966967483e-02	7.734045e-02	4.721502e-02	2.069613e-04	-4.742198e-02
1.600455966967483e-02	7.781251e-02	4.719670e-02	2.095471e-04	-4.740625e-02
1.610455966967483e-02	7.828438e-02	4.717837e-02	2.121487e-04	-4.739052e-02
1.620455966967483e-02	7.875607e-02	4.716003e-02	2.147661e-04	-4.737480e-02
1.630455966967483e-02	7.922758e-02	4.714168e-02	2.173991e-04	-4.735908e-02
1.640455966967483e-02	7.969891e-02	4.712332e-02	2.200479e-04	-4.734337e-02
1.650455966967483e-02	8.017005e-02	4.710495e-02	2.227124e-04	-4.732766e-02
1.660455966967483e-02	8.064101e-02	4.708657e-02	2.253925e-04	-4.731197e-02
1.670455966967483e-02	8.111178e-02	4.706819e-02	2.280884e-04	-4.729627e-02
1.680455966967483e-02	8.158237e-02	4.704979e-02	2.308000e-04	-4.728059e-02
1.690455966967483e-02	8.205277e-02	4.703138e-02	2.335272e-04	-4.726491e-02
1.700455966967482e-02	8.252300e-02	4.701296e-02	2.362701e-04	-4.724924e-02
1.710455966967482e-02	8.299304e-02	4.699454e-02	2.390287e-04	-4.723357e-02
1.720455966967482e-02	8.346289e-02	4.697610e-02	2.418030e-04	-4.721791e-02
1.730455966967482e-02	8.393256e-02	4.695766e-02	2.445929e-04	-4.720225e-02
1.740455966967482e-02	8.440204e-02	4.693920e-02	2.473985e-04	-4.718660e-02
1.750455966967482e-02	8.487134e-02	4.692074e-02	2.502197e-04	-4.717096e-02
1.760455966967482e-02	8.534046e-02	4.690226e-02	2.530566e-04	-4.715532e-02
1.770455966967482e-02	8.580939e-02	4.688378e-02	2.559090e-04	-4.713969e-02
1.780455966967482e-02	8.627813e-02	4.686528e-02	2.587772e-04	-4.712406e-02
1.790455966967482e-02	8.674669e-02	4.684678e-02	2.616609e-04	-4.710845e-02
1.800455966967482e-02	8.721507e-02	4.682827e-02	2.645603e-04	-4.709283e-02
1.810455966967482e-02	8.768326e-02	4.680975e-02	2.674752e-04	-4.707722e-02
1.820455966967482e-02	8.815126e-02	4.679122e-02	2.704058e-04	-4.706163e-02
1.830455966967482e-02	8.861908e-02	4.677268e-02	2.733519e-04	-4.704603e-02
1.840455966967482e-02	8.908672e-02	4.675413e-02	2.763137e-04	-4.703044e-02
1.850455966967482e-02	8.955417e-02	4.673557e-02	2.792910e-04	-4.701486e-02
1.860455966967482e-02	9.002142e-02	4.671700e-02	2.822840e-04	-4.699929e-02
1.870455966967481e-02	9.048851e-02	4.669842e-02	2.852925e-04	-4.698372e-02
1.880455966967481e-02	9.095540e-02	4.667984e-02	2.883165e-04	-4.696815e-02
1.890455966967481e-02	9.142210e-02	4.666124e-02	2.913561e-04	-4.695260e-02
1.900455966967481e-02	9.188862e-02	4.664264e-02	2.944113e-04	-4.693704e-02
1.910455966967481e-02	9.235495e-02	4.662402e-02	2.974820e-04	-4.692150e-02
1.920455966967481e-02	9.282110e-02	4.660539e-02	3.005683e-04	-4.690596e-02
1.930455966967481e-02	9.328707e-02	4.658676e-02	3.036701e-04	-4.689043e-02
1.940455966967481e-02	9.375284e-02	4.656812e-02	3.067874e-04	-4.687491e-02
1.950455966967481e-02	9.421843e-02	4.654947e-02	3.099202e-04	-4.685939e-02
1.960455966967481e-02	9.468383e-02	4.653081e-02	3.130686e-04	-4.684387e-02
1.970455966967481e-02	9.514904e-02	4.651213e-02	3.162324e-04	-4.682837e-02
1.980455966967481e-02	9.561407e-02	4.649345e-02	3.194118e-04	-4.681287e-02
1.990455966967481e-02	9.607891e-02	4.647476e-02	3.226067e-04	-4.679737e-02
2.000455966967481e-02	9.654357e-02	4.645607e-02	3.258171e-04	-4.678188e-02
2.010455966967481e-02	9.700803e-02	4.643736e-02	3.290429e-04	-4.676640e-02
2.020455966967481e-02	9.747231e-02	4.641864e-02	3.322842e-04	-4.675092e-02
2.030455966967480e-02	9.793641e-02	4.639991e-02	3.355410e-04	-4.673545e-02
2.040455966967480e-02	9.840031e-02	4.638118e-02	3.388133e-04	-4.671999e-02
2.050455966967480e-02	9.886403e-02	4.636243e-02	3.421010e-04	-4.670453e-02
2.060455966967480e-02	9.932756e-02	4.634368e-02	3.454042e-04	-4.668908e-02
2.070455966967480e-02	9.979090e-02	4.632491e-02	3.487229e-04	-4.667364e-02
2.080455966967480e-02	1.002541e-01	4.630614e-02	3.520569e-04	-4.665820e-02
2.090455966967480e-02	1.007170e-01	4.628736e-02	3.554064e-04	-4.664277e-02
2.100455966967480e-02	1.011798e-01	4.626857e-02	3.587714e-04	-4.662734e-02
2.110455966967480e-02	1.016424e-01	4.624977e-02	3.621517e-04	-4.661192e-02
2.120455966967480e-02	1.021048e-01	4.623096e-02	3.655475e-04	-4.659651e-02
2.130455966967480e-02	1.025670e-01	4.621214e-02	3.689587e-04	-4.658110e-02
2.140455966967480e-02	1.030290e-01	4.619331e-02	3.723853e-04	-4.656570e-02
2.150455966967480e-02	1.034909e-01	4.617448e-02	3.758273e-04	-4.655030e-02
2.160455966967480e-02	1.039525e-01	4.615563e-02	3.792846e-04	-4.653491e-02
2.170455966967480e-02	1.044140e-01	4.613678e-02	3.827574e-04	-4.651953e-02
2.180455966967480e-02	1.048753e-01	4.611791e-02	3.862455e-04	-4.650416e-02
2.190455966967480e-02	1.053364e-01	4.609904e-02	3.897490e-04	-4.648879e-02
2.200455966967479e-02	1.057972e-01	4.608016e-02	3.932679e-04	-4.647342e-02
2.210455966967479e-02	1.062580e-01	4.606127e-02	3.968022e-04	-4.645807e-02
2.220455966967479e-02	1.067185e-01	4.604236e-02	4.003518e-04	-4.644272e-02
2.230455966967479e-02	1.071788e-01	4.602346e-02	4.039167e-04	-4.642737e-02
2.240455966967479e-02	1.076389e-01	4.600454e-02	4.074970e-04	-4.641204e-02
2.250455966967479e-02	1.080989e-01	4.598561e-02	4.110926e-04	-4.639670e-02
2.260455966967479e-02	1.085587e-01	4.596667e-02	4.147035e-04	-4.638138e-02
2.270455966967479e-02	1.090182e-01	4.594773e-02	4.183298e-04	-4.636606e-02
2.280455966967479e-02	1.094776e-01	4.592878e-02	4.219714e-04	-4.635075e-02
2.290455966967479e-02	1.099368e-01	4.590981e-02	4.256283e-04	-4.633544e-02
2.300455966967479e-02	1.103958e-01	4.589084e-02	4.293005e-04	-4.632014e-02
