time	V(n001)	I(C1)	I(L1)	I(R1)
0.000000000000000e+00	0.000000e+00	0.000000e+00	0.000000e+00	0.000000e+00
9.999999717180685e-10	9.999999e-13	5.000000e-05	2.002000e-21	-5.000000e-05
1.023999971071302e-09	1.024576e-12	5.120000e-05	2.051229e-21	-5.120000e-05
1.071999969777769e-09	1.074880e-12	5.360000e-05	2.152103e-21	-5.360000e-05
1.167999967190704e-09	1.182400e-12	5.840000e-05	2.369017e-21	-5.840000e-05
1.359999962016573e-09	1.425088e-12	6.800000e-05	2.870140e-21	-6.800000e-05
1.743999951668311e-09	2.021056e-12	8.719999e-05	4.194651e-21	-8.719999e-05
2.511999930971787e-09	3.655360e-12	1.256000e-04	8.557407e-21	-1.256000e-04
4.047999889578740e-09	8.693439e-12	2.024000e-04	2.753524e-20	-2.024000e-04
7.119999806792646e-09	2.584749e-11	3.560000e-04	1.336793e-19	-3.560000e-04
1.326399964122046e-08	8.846713e-11	6.632000e-04	8.361535e-19	-6.632000e-04
2.555199931007608e-08	3.269526e-10	1.277600e-03	5.941308e-18	-1.277600e-03
5.012799864778732e-08	1.256908e-09	2.506400e-03	4.486814e-17	-2.506400e-03
9.927999732320981e-08	4.928759e-09	4.963999e-03	3.489134e-16	-4.963999e-03
1.975839946740548e-07	1.952021e-08	9.879198e-03	2.752374e-15	-9.879198e-03
3.145108026445994e-07	4.945901e-08	1.572553e-02	1.081795e-14	-1.572553e-02
4.288349953248877e-07	9.195020e-08	2.144174e-02	2.698453e-14	-2.144174e-02
5.613488154812481e-07	1.575567e-07	2.806742e-02	6.004778e-14	-2.806742e-02
7.394489605101882e-07	2.733927e-07	3.697242e-02	1.368002e-13	-3.697242e-02
9.709149891682774e-07	4.713382e-07	4.854570e-02	3.091805e-13	-4.854570e-02
1.000000000000000e-06	5.000002e-07	4.999995e-02	3.374319e-13	-4.999995e-02
1.279927221605240e-06	7.799270e-07	4.999992e-02	6.957189e-13	-4.999992e-02
1.562401793613805e-06	1.062401e-06	4.999989e-02	1.216130e-12	-4.999989e-02
2.127350937630935e-06	1.627349e-06	4.999984e-02	2.735703e-12	-4.999984e-02
3.257249225665194e-06	2.757242e-06	4.999973e-02	7.689847e-12	-4.999973e-02
5.517045801733713e-06	5.017021e-06	4.999950e-02	2.525810e-11	-4.999950e-02
1.003663895387075e-05	9.536549e-06	4.999905e-02	9.103433e-11	-4.999905e-02
1.907582525814482e-05	1.857548e-05	4.999814e-02	3.451442e-10	-4.999814e-02
2.000000000000000e-05	1.949962e-05	4.999805e-02	3.803323e-10	-4.999805e-02
2.060901818108632e-05	2.010861e-05	4.999799e-02	4.048253e-10	-4.999799e-02
2.182705454325897e-05	2.132660e-05	4.999787e-02	4.552949e-10	-4.999787e-02
2.426312726760426e-05	2.376256e-05	4.999762e-02	5.651354e-10	-4.999762e-02
2.913527271629483e-05	2.863445e-05	4.999714e-02	8.204212e-10	-4.999714e-02
3.887956361367598e-05	3.837809e-05	4.999616e-02	1.473411e-09	-4.999616e-02
5.836814540843828e-05	5.786480e-05	4.999421e-02	3.349048e-09	-4.999422e-02
9.734530899796289e-05	9.683592e-05	4.999031e-02	9.378843e-09	-4.999031e-02
1.752996361770121e-04	1.747691e-04	4.998249e-02	3.055162e-08	-4.998252e-02
2.752996361770121e-04	2.747240e-04	4.997245e-02	7.550091e-08	-4.997253e-02
3.752996361770121e-04	3.746588e-04	4.996239e-02	1.404392e-07	-4.996254e-02
4.752996361770120e-04	4.745735e-04	4.995232e-02	2.253624e-07	-4.995254e-02
5.752996361770120e-04	5.744681e-04	4.994222e-02	3.302665e-07	-4.994255e-02
6.752996361770120e-04	6.743424e-04	4.993211e-02	4.551475e-07	-4.993257e-02
7.752996361770120e-04	7.741965e-04	4.992198e-02	6.000013e-07	-4.992258e-02
8.752996361770121e-04	8.740303e-04	4.991183e-02	7.648238e-07	-4.991260e-02
9.752996361770121e-04	9.738439e-04	4.990166e-02	9.496110e-07	-4.990261e-02
1.075299636177012e-03	1.073637e-03	4.989148e-02	1.154359e-06	-4.989264e-02
1.175299636177012e-03	1.173410e-03	4.988128e-02	1.379063e-06	-4.988266e-02
1.275299636177012e-03	1.273162e-03	4.987106e-02	1.623720e-06	-4.987269e-02
1.375299636177012e-03	1.372894e-03	4.986082e-02	1.888325e-06	-4.986271e-02
1.475299636177012e-03	1.472605e-03	4.985057e-02	2.172875e-06	-4.985274e-02
1.575299636177012e-03	1.572296e-03	4.984029e-02	2.477365e-06	-4.984277e-02
1.675299636177012e-03	1.671967e-03	4.983000e-02	2.801791e-06	-4.983280e-02
1.775299636177012e-03	1.771616e-03	4.981969e-02	3.146148e-06	-4.982284e-02
1.875299636177013e-03	1.871245e-03	4.980937e-02	3.510434e-06	-4.981288e-02
1.975299636177012e-03	1.970854e-03	4.979902e-02	3.894643e-06	-4.980291e-02
2.075299636177012e-03	2.070441e-03	4.978866e-02	4.298771e-06	-4.979296e-02
2.175299636177012e-03	2.170008e-03	4.977828e-02	4.722815e-06	-4.978300e-02
2.275299636177012e-03	2.269554e-03	4.976788e-02	5.166771e-06	-4.977304e-02
2.375299636177012e-03	2.369080e-03	4.975746e-02	5.630633e-06	-4.976309e-02
2.475299636177011e-03	2.468584e-03	4.974703e-02	6.114398e-06	-4.975314e-02
2.575299636177011e-03	2.568068e-03	4.973657e-02	6.618062e-06	-4.974319e-02
2.675299636177011e-03	2.667530e-03	4.972611e-02	7.141621e-06	-4.973325e-02
2.775299636177011e-03	2.766972e-03	4.971562e-02	7.685069e-06	-4.972330e-02
2.875299636177011e-03	2.866393e-03	4.970511e-02	8.248405e-06	-4.971336e-02
2.975299636177011e-03	2.965793e-03	4.969459e-02	8.831621e-06	-4.970342e-02
3.075299636177010e-03	3.065171e-03	4.968405e-02	9.434716e-06	-4.969348e-02
3.175299636177010e-03	3.164529e-03	4.967349e-02	1.005768e-05	-4.968355e-02
3.275299636177010e-03	3.263865e-03	4.966291e-02	1.070052e-05	-4.967361e-02
3.375299636177010e-03	3.363180e-03	4.965232e-02	1.136322e-05	-4.966368e-02
3.475299636177010e-03	3.462475e-03	4.964171e-02	1.204579e-05	-4.965375e-02
3.575299636177010e-03	3.561747e-03	4.963108e-02	1.274821e-05	-4.964383e-02
3.675299636177009e-03	3.660999e-03	4.962043e-02	1.347048e-05	-4.963390e-02
3.775299636177009e-03	3.760229e-03	4.960977e-02	1.421260e-05	-4.962398e-02
3.875299636177009e-03	3.859438e-03	4.959908e-02	1.497456e-05	-4.961406e-02
3.975299636177009e-03	3.958625e-03	4.958838e-02	1.575637e-05	-4.960414e-02
4.075299636177010e-03	4.057792e-03	4.957766e-02	1.655800e-05	-4.959422e-02
4.175299636177010e-03	4.156936e-03	4.956693e-02	1.737947e-05	-4.958431e-02
4.275299636177010e-03	4.256059e-03	4.955617e-02	1.822077e-05	-4.957439e-02
4.375299636177010e-03	4.355161e-03	4.954540e-02	1.908189e-05	-4.956448e-02
4.475299636177011e-03	4.454241e-03	4.953461e-02	1.996282e-05	-4.955458e-02
4.575299636177011e-03	4.553299e-03	4.952381e-02	2.086357e-05	-4.954467e-02
4.675299636177011e-03	4.652336e-03	4.951298e-02	2.178413e-05	-4.953477e-02
4.775299636177011e-03	4.751351e-03	4.950214e-02	2.272450e-05	-4.952487e-02
4.875299636177012e-03	4.850344e-03	4.949128e-02	2.368466e-05	-4.951496e-02
4.975299636177012e-03	4.949316e-03	4.948040e-02	2.466462e-05	-4.950507e-02
5.075299636177012e-03	5.048266e-03	4.946951e-02	2.566438e-05	-4.949517e-02
5.175299636177013e-03	5.147194e-03	4.945860e-02	2.668392e-05	-4.948528e-02
5.275299636177013e-03	5.246100e-03	4.944767e-02	2.772324e-05	-4.947539e-02
5.375299636177013e-03	5.344985e-03	4.943672e-02	2.878234e-05	-4.946550e-02
5.475299636177013e-03	5.443847e-03	4.942575e-02	2.986122e-05	-4.945562e-02
5.575299636177014e-03	5.542688e-03	4.941477e-02	3.095987e-05	-4.944573e-02
5.675299636177014e-03	5.641506e-03	4.940377e-02	3.207828e-05	-4.943585e-02
5.775299636177014e-03	5.740303e-03	4.939275e-02	3.321646e-05	-4.942597e-02
5.875299636177014e-03	5.839077e-03	4.938172e-02	3.437439e-05	-4.941609e-02
5.975299636177015e-03	5.937830e-03	4.937067e-02	3.555207e-05	-4.940622e-02
6.075299636177015e-03	6.036560e-03	4.935959e-02	3.674950e-05	-4.939634e-02
6.175299636177015e-03	6.135268e-03	4.934851e-02	3.796668e-05	-4.938647e-02
6.275299636177015e-03	6.233954e-03	4.933740e-02	3.920359e-05	-4.937660e-02
6.375299636177016e-03	6.332618e-03	4.932628e-02	4.046024e-05	-4.936674e-02
6.475299636177016e-03	6.431259e-03	4.931514e-02	4.173662e-05	-4.935687e-02
6.575299636177016e-03	6.529878e-03	4.930398e-02	4.303273e-05	-4.934701e-02
6.675299636177016e-03	6.628475e-03	4.929280e-02	4.434855e-05	-4.933715e-02
6.775299636177017e-03	6.727049e-03	4.928161e-02	4.568410e-05	-4.932730e-02
6.875299636177017e-03	6.825601e-03	4.927040e-02	4.703935e-05	-4.931744e-02
6.975299636177017e-03	6.924131e-03	4.925917e-02	4.841432e-05	-4.930759e-02
7.075299636177017e-03	7.022638e-03	4.924793e-02	4.980898e-05	-4.929774e-02
7.175299636177018e-03	7.121122e-03	4.923666e-02	5.122335e-05	-4.928789e-02
7.275299636177018e-03	7.219585e-03	4.922538e-02	5.265741e-05	-4.927804e-02
7.375299636177018e-03	7.318024e-03	4.921409e-02	5.411116e-05	-4.926820e-02
7.475299636177019e-03	7.416441e-03	4.920277e-02	5.558459e-05	-4.925836e-02
7.575299636177019e-03	7.514835e-03	4.919144e-02	5.707771e-05	-4.924852e-02
7.675299636177019e-03	7.613207e-03	4.918009e-02	5.859050e-05	-4.923868e-02
7.775299636177019e-03	7.711555e-03	4.916872e-02	6.012297e-05	-4.922884e-02
7.875299636177020e-03	7.809882e-03	4.915734e-02	6.167510e-05	-4.921901e-02
7.975299636177019e-03	7.908185e-03	4.914593e-02	6.324689e-05	-4.920918e-02
8.075299636177018e-03	8.006466e-03	4.913452e-02	6.483834e-05	-4.919935e-02
8.175299636177018e-03	8.104723e-03	4.912308e-02	6.644945e-05	-4.918953e-02
8.275299636177017e-03	8.202958e-03	4.911162e-02	6.808020e-05	-4.917970e-02
8.375299636177017e-03	8.301170e-03	4.910015e-02	6.973060e-05	-4.916988e-02
8.475299636177016e-03	8.399358e-03	4.908866e-02	7.140065e-05	-4.916006e-02
8.575299636177015e-03	8.497524e-03	4.907716e-02	7.309032e-05	-4.915025e-02
8.675299636177015e-03	8.595667e-03	4.906563e-02	7.479962e-05	-4.914043e-02
8.775299636177014e-03	8.693786e-03	4.905409e-02	7.652855e-05	-4.913062e-02
8.875299636177014e-03	8.791883e-03	4.904253e-02	7.827710e-05	-4.912081e-02
8.975299636177013e-03	8.889956e-03	4.903096e-02	8.004527e-05	-4.911100e-02
9.075299636177012e-03	8.988007e-03	4.901937e-02	8.183305e-05	-4.910120e-02
9.175299636177012e-03	9.086034e-03	4.900775e-02	8.364044e-05	-4.909139e-02
9.275299636177011e-03	9.184038e-03	4.899613e-02	8.546743e-05	-4.908160e-02
9.375299636177011e-03	9.282019e-03	4.898448e-02	8.731402e-05	-4.907180e-02
9.475299636177010e-03	9.379975e-03	4.897282e-02	8.918020e-05	-4.906200e-02
9.575299636177009e-03	9.477910e-03	4.896114e-02	9.106597e-05	-4.905221e-02
9.675299636177009e-03	9.575821e-03	4.894945e-02	9.297133e-05	-4.904242e-02
9.775299636177008e-03	9.673707e-03	4.893773e-02	9.489626e-05	-4.903263e-02
9.875299636177007e-03	9.771571e-03	4.892600e-02	9.684077e-05	-4.902284e-02
9.975299636177007e-03	9.869412e-03	4.891425e-02	9.880485e-05	-4.901306e-02
1.007529963617701e-02	9.967228e-03	4.890249e-02	1.007885e-04	-4.900328e-02
1.017529963617701e-02	1.006502e-02	4.889071e-02	1.027917e-04	-4.899350e-02
1.027529963617701e-02	1.016279e-02	4.887891e-02	1.048145e-04	-4.898372e-02
1.037529963617700e-02	1.026054e-02	4.886709e-02	1.068568e-04	-4.897395e-02
1.047529963617700e-02	1.035826e-02	4.885526e-02	1.089186e-04	-4.896417e-02
1.057529963617700e-02	1.045596e-02	4.884340e-02	1.110000e-04	-4.895440e-02
1.067529963617700e-02	1.055363e-02	4.883154e-02	1.131010e-04	-4.894464e-02
1.077529963617700e-02	1.065128e-02	4.881965e-02	1.152214e-04	-4.893487e-02
1.087529963617700e-02	1.074891e-02	4.880775e-02	1.173614e-04	-4.892511e-02
1.097529963617700e-02	1.084652e-02	4.879583e-02	1.195209e-04	-4.891535e-02
1.107529963617700e-02	1.094410e-02	4.878389e-02	1.217000e-04	-4.890559e-02
1.117529963617700e-02	1.104165e-02	4.877194e-02	1.238985e-04	-4.889584e-02
1.127529963617700e-02	1.113918e-02	4.875996e-02	1.261166e-04	-4.888608e-02
1.137529963617700e-02	1.123669e-02	4.874798e-02	1.283541e-04	-4.887633e-02
1.147529963617700e-02	1.133417e-02	4.873597e-02	1.306112e-04	-4.886658e-02
1.157529963617700e-02	1.143163e-02	4.872395e-02	1.328878e-04	-4.885684e-02
1.167529963617700e-02	1.152907e-02	4.871191e-02	1.351838e-04	-4.884709e-02
1.177529963617700e-02	1.162648e-02	4.869985e-02	1.374993e-04	-4.883735e-02
1.187529963617700e-02	1.172387e-02	4.868778e-02	1.398343e-04	-4.882761e-02
1.197529963617699e-02	1.182123e-02	4.867569e-02	1.421888e-04	-4.881788e-02
1.207529963617699e-02	1.191857e-02	4.866358e-02	1.445628e-04	-4.880814e-02
1.217529963617699e-02	1.201589e-02	4.865146e-02	1.469562e-04	-4.879841e-02
1.227529963617699e-02	1.211318e-02	4.863931e-02	1.493691e-04	-4.878868e-02
1.237529963617699e-02	1.221044e-02	4.862715e-02	1.518014e-04	-4.877895e-02
1.247529963617699e-02	1.230769e-02	4.861498e-02	1.542532e-04	-4.876923e-02
1.257529963617699e-02	1.240490e-02	4.860279e-02	1.567244e-04	-4.875951e-02
1.267529963617699e-02	1.250210e-02	4.859057e-02	1.592151e-04	-4.874979e-02
1.277529963617699e-02	1.259927e-02	4.857835e-02	1.617252e-04	-4.874007e-02
1.287529963617699e-02	1.269641e-02	4.856610e-02	1.642547e-04	-4.873036e-02
1.297529963617699e-02	1.279353e-02	4.855384e-02	1.668037e-04	-4.872065e-02
1.307529963617699e-02	1.289063e-02	4.854156e-02	1.693721e-04	-4.871094e-02
1.317529963617699e-02	1.298770e-02	4.852927e-02	1.719599e-04	-4.870123e-02
1.327529963617699e-02	1.308474e-02	4.851696e-02	1.745671e-04	-4.869153e-02
1.337529963617699e-02	1.318177e-02	4.850463e-02	1.771937e-04	-4.868182e-02
1.347529963617699e-02	1.327876e-02	4.849228e-02	1.798397e-04	-4.867212e-02
1.357529963617699e-02	1.337573e-02	4.847992e-02	1.825051e-04	-4.866243e-02
1.367529963617698e-02	1.347268e-02	4.846754e-02	1.851899e-04	-4.865273e-02
1.377529963617698e-02	1.356960e-02	4.845515e-02	1.878941e-04	-4.864304e-02
1.387529963617698e-02	1.366650e-02	4.844273e-02	1.906177e-04	-4.863335e-02
1.397529963617698e-02	1.376338e-02	4.843030e-02	1.933606e-04	-4.862366e-02
1.407529963617698e-02	1.386022e-02	4.841786e-02	1.961230e-04	-4.861398e-02
1.417529963617698e-02	1.395705e-02	4.840539e-02	1.989047e-04	-4.860429e-02
1.427529963617698e-02	1.405384e-02	4.839291e-02	2.017057e-04	-4.859462e-02
1.437529963617698e-02	1.415062e-02	4.838041e-02	2.045261e-04	-4.858494e-02
1.447529963617698e-02	1.424737e-02	4.836790e-02	2.073659e-04	-4.857526e-02
1.457529963617698e-02	1.434409e-02	4.835537e-02	2.102250e-04	-4.856559e-02
1.467529963617698e-02	1.444079e-02	4.834282e-02	2.131034e-04	-4.855592e-02
1.477529963617698e-02	1.453746e-02	4.833025e-02	2.160012e-04	-4.854625e-02
1.487529963617698e-02	1.463411e-02	4.831767e-02	2.189183e-04	-4.853659e-02
1.497529963617698e-02	1.473073e-02	4.830507e-02	2.218547e-04	-4.852693e-02
1.507529963617698e-02	1.482733e-02	4.829246e-02	2.248105e-04	-4.851727e-02
1.517529963617698e-02	1.492390e-02	4.827983e-02	2.277856e-04	-4.850761e-02
1.527529963617697e-02	1.502045e-02	4.826717e-02	2.307800e-04	-4.849796e-02
1.537529963617697e-02	1.511697e-02	4.825451e-02	2.337937e-04	-4.848830e-02
1.547529963617697e-02	1.521347e-02	4.824183e-02	2.368267e-04	-4.847865e-02
1.557529963617697e-02	1.530994e-02	4.822913e-02	2.398790e-04	-4.846901e-02
1.567529963617697e-02	1.540638e-02	4.821641e-02	2.429505e-04	-4.845936e-02
1.577529963617697e-02	1.550280e-02	4.820368e-02	2.460414e-04	-4.844972e-02
1.587529963617697e-02	1.559920e-02	4.819093e-02	2.491516e-04	-4.844008e-02
1.597529963617697e-02	1.569557e-02	4.817816e-02	2.522810e-04	-4.843044e-02
1.607529963617697e-02	1.579191e-02	4.816538e-02	2.554297e-04	-4.842081e-02
1.617529963617697e-02	1.588823e-02	4.815258e-02	2.585977e-04	-4.841118e-02
1.627529963617697e-02	1.598452e-02	4.813976e-02	2.617849e-04	-4.840155e-02
1.637529963617697e-02	1.608079e-02	4.812693e-02	2.649914e-04	-4.839192e-02
1.647529963617697e-02	1.617703e-02	4.811408e-02	2.682171e-04	-4.838230e-02
1.657529963617697e-02	1.627324e-02	4.810121e-02	2.714620e-04	-4.837267e-02
1.667529963617697e-02	1.636943e-02	4.808833e-02	2.747263e-04	-4.836306e-02
1.677529963617697e-02	1.646560e-02	4.807543e-02	2.780097e-04	-4.835344e-02
1.687529963617697e-02	1.656174e-02	4.806251e-02	2.813124e-04	-4.834383e-02
1.697529963617696e-02	1.665785e-02	4.804958e-02	2.846343e-04	-4.833421e-02
1.707529963617696e-02	1.675393e-02	4.803663e-02	2.879754e-04	-4.832461e-02
1.717529963617696e-02	1.684999e-02	4.802366e-02	2.913357e-04	-4.831500e-02
1.727529963617696e-02	1.694603e-02	4.801068e-02	2.947153e-04	-4.830540e-02
1.737529963617696e-02	1.704204e-02	4.799768e-02	2.981140e-04	-4.829580e-02
1.747529963617696e-02	1.713802e-02	4.798467e-02	3.015320e-04	-4.828620e-02
1.757529963617696e-02	1.723398e-02	4.797163e-02	3.049691e-04	-4.827660e-02
1.767529963617696e-02	1.732991e-02	4.795858e-02	3.084255e-04	-4.826701e-02
1.777529963617696e-02	1.742581e-02	4.794552e-02	3.119009e-04	-4.825742e-02
1.787529963617696e-02	1.752169e-02	4.793243e-02	3.153956e-04	-4.824783e-02
1.797529963617696e-02	1.761754e-02	4.791934e-02	3.189095e-04	-4.823825e-02
1.807529963617696e-02	1.771336e-02	4.790622e-02	3.224425e-04	-4.822866e-02
1.817529963617696e-02	1.780916e-02	4.789309e-02	3.259947e-04	-4.821908e-02
1.827529963617696e-02	1.790494e-02	4.787994e-02	3.295661e-04	-4.820951e-02
1.837529963617696e-02	1.800068e-02	4.786678e-02	3.331566e-04	-4.819993e-02
1.847529963617696e-02	1.809640e-02	4.785359e-02	3.367662e-04	-4.819036e-02
1.857529963617695e-02	1.819210e-02	4.784039e-02	3.403950e-04	-4.818079e-02
1.867529963617695e-02	1.828777e-02	4.782718e-02	3.440429e-04	-4.817122e-02
1.877529963617695e-02	1.838341e-02	4.781395e-02	3.477100e-04	-4.816166e-02
1.887529963617695e-02	1.847902e-02	4.780070e-02	3.513961e-04	-4.815210e-02
1.897529963617695e-02	1.857461e-02	4.778744e-02	3.551014e-04	-4.814254e-02
1.907529963617695e-02	1.867017e-02	4.777416e-02	3.588258e-04	-4.813298e-02
1.917529963617695e-02	1.876571e-02	4.776086e-02	3.625693e-04	-4.812343e-02
1.927529963617695e-02	1.886122e-02	4.774754e-02	3.663320e-04	-4.811388e-02
1.937529963617695e-02	1.895670e-02	4.773422e-02	3.701137e-04	-4.810433e-02
1.947529963617695e-02	1.905215e-02	4.772087e-02	3.739145e-04	-4.809478e-02
1.957529963617695e-02	1.914758e-02	4.770751e-02	3.777344e-04	-4.808524e-02
1.967529963617695e-02	1.924298e-02	4.769413e-02	3.815734e-04	-4.807570e-02
1.977529963617695e-02	1.933836e-02	4.768073e-02	3.854314e-04	-4.806617e-02
1.987529963617695e-02	1.943371e-02	4.766732e-02	3.893086e-04	-4.805663e-02
1.997529963617695e-02	1.952903e-02	4.765389e-02	3.932047e-04	-4.804710e-02
2.007529963617695e-02	1.962432e-02	4.764045e-02	3.971200e-04	-4.803757e-02
2.017529963617695e-02	1.971959e-02	4.762699e-02	4.010543e-04	-4.802804e-02
2.027529963617694e-02	1.981483e-02	4.761351e-02	4.050077e-04	-4.801852e-02
2.037529963617694e-02	1.991004e-02	4.760002e-02	4.089801e-04	-4.800900e-02
2.047529963617694e-02	2.000523e-02	4.758650e-02	4.129715e-04	-4.799948e-02
2.057529963617694e-02	2.010039e-02	4.757298e-02	4.169820e-04	-4.798996e-02
2.067529963617694e-02	2.019552e-02	4.755944e-02	4.210115e-04	-4.798045e-02
2.077529963617694e-02	2.029063e-02	4.754588e-02	4.250600e-04	-4.797094e-02
2.087529963617694e-02	2.038570e-02	4.753230e-02	4.291276e-04	-4.796143e-02
2.097529963617694e-02	2.048075e-02	4.751871e-02	4.332142e-04	-4.795193e-02
2.107529963617694e-02	2.057578e-02	4.750510e-02	4.373197e-04	-4.794242e-02
2.117529963617694e-02	2.067078e-02	4.749148e-02	4.414443e-04	-4.793292e-02
2.127529963617694e-02	2.076574e-02	4.747784e-02	4.455879e-04	-4.792343e-02
2.137529963617694e-02	2.086069e-02	4.746418e-02	4.497504e-04	-4.791393e-02
2.147529963617694e-02	2.095560e-02	4.745051e-02	4.539319e-04	-4.790444e-02
2.157529963617694e-02	2.105049e-02	4.743682e-02	4.581324e-04	-4.789495e-02
2.167529963617694e-02	2.114535e-02	4.742311e-02	4.623519e-04	-4.788547e-02
2.177529963617694e-02	2.124018e-02	4.740939e-02	4.665904e-04	-4.787598e-02
2.187529963617693e-02	2.133499e-02	4.739565e-02	4.708478e-04	-4.786650e-02
2.197529963617693e-02	2.142976e-02	4.738190e-02	4.751242e-04	-4.785702e-02
2.207529963617693e-02	2.152451e-02	4.736813e-02	4.794195e-04	-4.784755e-02
2.217529963617693e-02	2.161924e-02	4.735434e-02	4.837338e-04	-4.783808e-02
2.227529963617693e-02	2.171393e-02	4.734054e-02	4.880670e-04	-4.782861e-02
2.237529963617693e-02	2.180860e-02	4.732672e-02	4.924192e-04	-4.781914e-02
2.247529963617693e-02	2.190324e-02	4.731289e-02	4.967903e-04	-4.780968e-02
2.257529963617693e-02	2.199785e-02	4.729903e-02	5.011803e-04	-4.780022e-02
2.267529963617693e-02	2.209243e-02	4.728517e-02	5.055892e-04	-4.779076e-02
2.277529963617693e-02	2.218699e-02	4.727129e-02	5.100170e-04	-4.778130e-02
2.287529963617693e-02	2.228152e-02	4.725739e-02	5.144638e-04	-4.777185e-02
2.297529963617693e-02	2.237602e-02	4.724347e-02	5.189294e-04	-4.776240e-02
2.307529963617693e-02	2.247049e-02	4.722954e-02	5.234140e-04	-4.775295e-02
